# GHZ S RI R 50
0.001000000000 0.981205224991 -0.019316345453 0.000039133916 0.000029897072 -0.000091471120 -0.000043371416 0.979218184948 -0.022430835292
0.012998000000 0.783956885338 0.075611613691 0.000003204942 -0.000001334652 -0.000000658793 -0.000002623373 0.739859342575 0.051254130900
0.024996000000 0.941005229950 -0.017118107527 -0.000000504906 -0.000004359470 0.000000947532 -0.000002960341 0.926639914513 -0.035212628543
0.036994000000 0.992485880852 0.107470199466 -0.000000257834 0.000000967054 0.000006089825 0.000000086978 0.997915089130 0.091391958296
0.048992000000 1.028592109680 0.148441940546 -0.000001662477 -0.000000528597 0.000000064523 -0.000000890051 1.026120543480 0.149315103889
0.060990000000 1.026703715324 -0.024339945987 0.000001412882 -0.000000915802 -0.000000843763 -0.000000305205 1.001160264015 -0.030336868018
0.072988000000 0.959166705608 -0.039416871965 0.000005120958 0.000002191787 0.000000249880 0.000000551409 0.932376861572 -0.033489976078
0.084986000000 0.997048377991 -0.046563290060 0.000000433101 0.000001723746 -0.000004894050 0.000001184336 0.974310159683 -0.028527840972
0.096984000000 1.020393371582 -0.078404471278 0.000002267652 0.000003849390 -0.000002191558 -0.000000061635 1.005519032478 -0.047785084695
0.108982000000 1.031031608582 -0.102149263024 0.000001041260 0.000004388560 -0.000001086583 0.000001383364 1.016058206558 -0.054991383106
0.120980000000 1.023325443268 -0.075087748468 0.000006772116 -0.000001459120 -0.000001509736 -0.000001447673 1.017114400864 -0.052169904113
0.132978000000 1.067438960075 -0.076589845121 -0.000003155081 0.000004727770 -0.000003542569 0.000001083022 1.037781834602 -0.025971559808
0.144976000000 1.063494443893 -0.034134835005 0.000003530515 -0.000002995353 0.000002218128 -0.000001170955 1.036486744881 -0.004035402089
0.156974000000 1.050845623016 -0.041894841939 -0.000000432392 -0.000002171629 -0.000004427141 0.000001594712 1.032979846001 -0.022849787027
0.168972000000 1.044927000999 -0.033974885941 -0.000002483088 -0.000001111715 0.000003728714 -0.000002465224 1.028519272804 -0.018411457539
0.180970000000 1.039203405380 -0.004039949272 0.000000013269 -0.000000123056 -0.000004887105 -0.000001630421 1.026923894882 -0.009539623745
0.192968000000 1.035951137543 -0.015982164070 -0.000006501143 0.000001403042 -0.000003618430 -0.000001438414 1.028114080429 -0.015706682578
0.204966000000 1.027623891830 0.003524522763 -0.000001106882 -0.000000140194 0.000002388357 0.000000617962 1.024351596832 0.005459650420
0.216964000000 1.022434711456 0.015630465001 0.000002400410 0.000004621427 0.000003832652 -0.000001780891 1.022295951843 0.014691570774
0.228962000000 1.020689368248 0.025289427489 -0.000000125905 -0.000001936203 0.000001172149 0.000000623923 1.020770668983 0.027154386044
0.240960000000 1.012589097023 0.019687604159 -0.000004909151 -0.000001888619 -0.000003415413 -0.000007412902 1.016225218773 0.025391796604
0.252958000000 1.016102433205 0.025012770668 -0.000003015102 -0.000005068338 0.000002983451 -0.000001503181 1.017331957817 0.027194004506
0.264956000000 1.011787891388 0.022155720741 -0.000003590911 -0.000000365569 -0.000001579210 0.000004340101 1.013457059860 0.024024978280
0.276954000000 1.008036494255 0.024588508531 -0.000006565873 0.000001801821 -0.000000818440 -0.000004934511 1.009711146355 0.027377281338
0.288952000000 1.009140610695 0.020038455725 -0.000001165396 0.000000220035 0.000004685597 -0.000001116711 1.011111736298 0.024565812200
0.300950000000 1.006466150284 0.017937121913 0.000000717034 -0.000000022023 0.000004102545 0.000000405418 1.008384346962 0.019872128963
0.312948000000 1.007930636406 0.017362451181 0.000005853305 0.000003597607 -0.000000325351 -0.000000609865 1.010561466217 0.018195997924
0.324946000000 1.005638718605 0.020559566095 -0.000004511598 -0.000002621613 0.000005431397 -0.000000447748 1.008011698723 0.018215602264
0.336944000000 1.003649592400 0.018016580492 -0.000006474498 0.000001380827 -0.000001841183 -0.000001633144 1.005181550980 0.015749698505
0.348942000000 1.004847049713 0.020098922774 -0.000001260557 0.000000654320 0.000003515737 0.000003191132 1.004812955856 0.015799792483
0.360940000000 1.003914237022 0.017402166501 -0.000005380104 -0.000008685209 0.000001226579 0.000000199293 1.002099752426 0.015144460835
0.372938000000 1.005821228027 0.016982540488 -0.000001502041 -0.000001883215 0.000004788712 -0.000004296644 1.005604982376 0.013968660496
0.384936000000 1.007116198540 0.018830697984 0.000000954573 -0.000006730046 0.000001721652 -0.000004408602 1.008366346359 0.016965212300
0.396934000000 1.005701780319 0.018662624061 0.000000077260 -0.000005587954 0.000004572859 -0.000006428312 1.009974360466 0.019342394546
0.408932000000 1.008861780167 0.020742060617 0.000007184527 0.000005012637 -0.000002103582 0.000000863183 1.011909604073 0.015406978317
0.420930000000 1.006572484970 0.027110334486 0.000007844244 -0.000000976997 0.000003457547 0.000004459369 1.009069204330 0.019084841013
0.432928000000 1.007606267929 0.025836849585 -0.000005044560 -0.000000458167 0.000006459034 0.000000597302 1.009789347649 0.016522385180
0.444926000000 1.009273529053 0.023109834641 -0.000002394693 -0.000000816174 0.000005043498 -0.000002143232 1.012290000916 0.015169971623
0.456924000000 1.008896946907 0.022039474919 0.000002586679 -0.000000011540 -0.000001829898 0.000003309728 1.010536313057 0.014126566239
0.468922000000 1.012697219849 0.020556954667 0.000003220496 -0.000001276633 0.000004328838 0.000004828806 1.014769792557 0.017545256764
0.480920000000 1.010134577751 0.023840565234 0.000006988513 0.000001177152 0.000005754885 0.000006654134 1.011761188507 0.016593921930
0.492918000000 1.015236377716 0.020846867934 -0.000004075760 0.000005448941 0.000003050334 0.000001049341 1.015392184258 0.017248434946
0.504916000000 1.016347050667 0.019133700058 -0.000005219611 0.000007638838 0.000001492182 -0.000000253300 1.015875339508 0.017059491947
0.516914000000 1.017252206802 0.020644742996 -0.000001896700 0.000005880613 -0.000008171880 -0.000001231399 1.016932845116 0.015547614545
0.528912000000 1.017563700676 0.024283939973 0.000001964237 0.000004706092 -0.000003511219 0.000008997896 1.017290234566 0.016724089161
0.540910000000 1.017250776291 0.023732410744 -0.000002951993 0.000004167875 0.000007122435 0.000006931331 1.017229914665 0.017695080489
0.552908000000 1.017265915871 0.024928128347 0.000008969801 -0.000000807295 -0.000006022810 0.000005752339 1.019836664200 0.017871152610
0.564906000000 1.015048503876 0.026612579823 0.000004414982 0.000011962446 -0.000000248762 -0.000006547769 1.019043803215 0.019072653726
0.576904000000 1.015822887421 0.025066887960 -0.000006180235 -0.000007344294 0.000001191644 0.000002191917 1.020050168037 0.017161205411
0.588902000000 1.016615867615 0.023856481537 0.000007062127 0.000000152562 0.000007894652 0.000015767826 1.020589828491 0.013612802140
0.600900000000 1.015870690346 0.027031945065 0.000008980090 -0.000002891691 0.000006394516 0.000009005858 1.016715049744 0.017340445891
0.612898000000 1.016391396523 0.028011621907 0.000015082223 0.000003658663 0.000000560824 0.000006397346 1.018506288528 0.019071608782
0.624896000000 1.014377951622 0.026826640591 -0.000003078033 0.000009613855 0.000004263102 -0.000003733780 1.017374873161 0.016723422334
0.636894000000 1.016822338104 0.025809885934 0.000014969079 0.000014165893 -0.000009547629 0.000001613553 1.019007802010 0.017121048644
0.648892000000 1.016870141029 0.023563746363 0.000001800378 0.000007609710 0.000003007329 0.000013787865 1.020091056824 0.015084714629
0.660890000000 1.016220331192 0.026119610295 0.000009114573 -0.000005454120 -0.000010395570 -0.000000133563 1.018351793289 0.016673140228
0.672888000000 1.018081188202 0.018775831908 0.000004201210 0.000006768314 -0.000001695140 0.000003669155 1.019742727280 0.009274977259
0.684886000000 1.017969369888 0.015129108913 0.000010421461 -0.000001381197 0.000001738698 0.000006544040 1.019367218018 0.003633914981
0.696884000000 1.018603563309 0.026207787916 0.000000065305 0.000005994923 -0.000004455491 -0.000001091839 1.019632816315 0.014774912968
0.708882000000 1.018470287323 0.026874570176 -0.000011417294 0.000009099631 -0.000004333738 -0.000000013549 1.020048141479 0.016854442656
0.720880000000 1.016432881355 0.026521723717 -0.000001644034 0.000004106453 -0.000002589412 -0.000008747073 1.018554806709 0.016796195880
0.732878000000 1.018690466881 0.027737487108 0.000004188009 0.000008304458 0.000002985651 0.000004522374 1.020454168320 0.020115211606
0.744876000000 1.017482995987 0.026123024523 0.000004035999 -0.000000132120 -0.000009368876 -0.000000522335 1.019689440727 0.015424218029
0.756874000000 1.016574859619 0.027394605801 -0.000000946533 0.000011048134 0.000000202482 -0.000004554178 1.020215868950 0.011686306447
0.768872000000 1.018849849701 0.027281228453 0.000002213790 0.000000928734 -0.000007622115 -0.000003378972 1.021177530289 0.010962702334
0.780870000000 1.017248392105 0.028389761224 0.000000398198 -0.000004022147 -0.000005576820 0.000000083129 1.018914103508 0.014326831326
0.792868000000 1.018249988556 0.027645140886 0.000002795854 -0.000002676763 0.000001306473 -0.000009398332 1.020676732063 0.015580202453
0.804866000000 1.017671346664 0.027012217790 -0.000004956026 0.000011655030 0.000000507907 0.000000702848 1.019820928574 0.014885025099
0.816864000000 1.016896843910 0.028124134988 -0.000004287017 0.000007223764 -0.000001479816 0.000001459220 1.019332885742 0.016199270263
0.828862000000 1.018097877502 0.021270750090 0.000004225890 0.000011500037 0.000004274322 -0.000007202254 1.018810510635 0.010403782129
0.840860000000 1.017179965973 0.028122002259 -0.000011616658 0.000003067227 0.000002140891 -0.000004777226 1.016606926918 0.015318751335
0.852858000000 1.017845034599 0.027473382652 -0.000005698773 0.000004983031 -0.000005880633 0.000000676869 1.016278147697 0.011460967362
0.864856000000 1.017826914787 0.027643717825 -0.000011488532 0.000008956424 -0.000002092011 -0.000000021979 1.019824981689 0.013812621124
0.876854000000 1.017596721649 0.024326471612 -0.000000997694 0.000003812780 -0.000005844571 0.000000394304 1.019984364510 0.013941539451
0.888852000000 1.016743063927 0.022472918034 -0.000004808950 -0.000001745014 0.000000574638 0.000001351041 1.017421603203 0.011462914757
0.900850000000 1.015120148659 0.024542031810 -0.000017240447 0.000004854214 -0.000008993471 -0.000002003829 1.014922976494 0.011261159554
0.912848000000 1.016364693642 0.028736952692 -0.000009143567 0.000003486596 -0.000008409435 -0.000001482154 1.016674041748 0.015519111417
0.924846000000 1.014956951141 0.026418136433 -0.000012679462 -0.000006741598 0.000000068181 -0.000001160141 1.016343712807 0.012203424238
0.936844000000 1.016439437866 0.024493364617 -0.000006629245 -0.000000515200 0.000003727767 0.000000208762 1.018945693970 0.011060596444
0.948842000000 1.014915704727 0.025918915868 -0.000008124066 0.000000585952 -0.000003324831 -0.000003480465 1.014284014702 0.012342817150
0.960840000000 1.015758633614 0.025087041780 -0.000013900441 0.000007570295 0.000002416158 -0.000005351837 1.015498518944 0.013777834363
0.972838000000 1.017847180367 0.027046186849 -0.000023790886 0.000007573532 0.000002389739 0.000001914889 1.017173171043 0.010279224254
0.984836000000 1.015436172485 0.027937578037 -0.000004190252 -0.000001811375 -0.000000656020 0.000002701417 1.013798475266 0.011892875656
0.996834000000 1.016598224640 0.030413970351 -0.000014102484 -0.000004800746 0.000002083837 -0.000001451168 1.014699459076 0.013613654301
1.008832000000 1.014884710312 0.030914058909 -0.000010541432 -0.000004989202 -0.000002436697 -0.000003448092 1.015555739403 0.013367051259
1.020830000000 1.013089895248 0.031094837934 -0.000002970005 -0.000009380236 0.000000393015 -0.000008635684 1.012460112572 0.012857525609
1.032828000000 1.016958117485 0.035899180919 -0.000019368834 -0.000007673847 -0.000000686234 -0.000000720044 1.013407230377 0.017989054322
1.044826000000 1.017871379852 0.030620256439 -0.000010653684 -0.000008755278 0.000001905222 -0.000000498608 1.007851004601 0.009035119787
1.056824000000 1.015674829483 0.027753103524 -0.000013065946 -0.000010665852 0.000002981174 -0.000001040079 1.008402824402 0.004906275775
1.068822000000 1.021790027618 0.033319480717 -0.000016121865 -0.000016246695 0.000001507108 0.000005665106 1.012013673782 0.016459856182
1.080820000000 1.023369908333 0.031062137336 -0.000013545163 -0.000010762815 -0.000000023812 0.000006848817 1.016206502914 0.011729821563
1.092818000000 1.019893527031 0.038088258356 -0.000010705396 -0.000013332947 0.000007346208 0.000001033118 1.009551763535 0.017904018983
1.104816000000 1.019731879234 0.034137587994 -0.000010302696 -0.000014442692 0.000000199438 0.000005145238 1.009968280792 0.014859355986
1.116814000000 1.019138574600 0.030598817393 -0.000013187884 -0.000013969655 -0.000005856136 0.000004990260 1.018807888031 0.015425265767
1.128812000000 1.016731381416 0.029529662803 -0.000017733648 -0.000027683689 -0.000006425666 0.000002101497 1.012239098549 0.011901993304
1.140810000000 1.016986012459 0.028294410557 -0.000022354183 -0.000022967839 -0.000006408212 0.000002395397 1.013342380524 0.009620958008
1.152808000000 1.020441412926 0.030039668083 -0.000014493758 -0.000024002067 -0.000006616957 0.000003851510 1.012613773346 0.015099303797
1.164806000000 1.018561244011 0.029818233103 -0.000020241439 -0.000023697972 -0.000015082299 0.000003486096 1.009396672249 0.021058561280
1.176804000000 1.021014928818 0.032058816403 -0.000014236618 -0.000018259598 -0.000014079266 0.000002019665 1.012426257133 0.027370430529
1.188802000000 1.019464373589 0.027492161840 -0.000009124095 -0.000013878929 -0.000017077607 0.000014275838 1.017772793770 0.022458361462
1.200800000000 1.011631488800 0.032166983932 -0.000004829266 -0.000036031877 -0.000026553442 0.000001996261 1.013359189034 0.025880059227
1.212798000000 1.016446948051 0.032058384269 -0.000014623273 -0.000028327373 -0.000017027203 0.000000164104 1.015748381615 0.029703881592
1.224796000000 1.016081571579 0.024857543409 -0.000007753912 -0.000041867726 -0.000023974962 0.000000656880 1.017543673515 0.021882930771
1.236794000000 1.017228126526 0.023977426812 -0.000007451005 -0.000044781762 -0.000027507258 -0.000009667937 1.018152832985 0.022930851206
1.248792000000 1.017022371292 0.027205916122 -0.000015268122 -0.000035644491 -0.000038339149 -0.000011782286 1.018009901047 0.023966107517
1.260790000000 1.014829754829 0.027853101492 -0.000011817880 -0.000036973601 -0.000036922444 -0.000019973648 1.013424038887 0.018246505409
1.272788000000 1.015657663345 0.023207968101 -0.000004064565 -0.000040727700 -0.000032179170 -0.000017648939 1.013784527779 0.014911076054
1.284786000000 1.010479927063 0.034673988819 -0.000016933112 -0.000057655427 -0.000041157899 -0.000021529666 1.007037878036 0.017595829442
1.296784000000 1.023090362549 0.037071090192 -0.000013908227 -0.000052603475 -0.000041784395 -0.000009310762 1.004897832870 0.016057360917
1.308782000000 1.022021770477 0.026837566867 0.000005823011 -0.000050973202 -0.000047372978 -0.000011892425 1.017636060715 0.015077088028
1.320780000000 1.013297677040 0.016453724355 -0.000014365806 -0.000056104920 -0.000035992216 -0.000026474640 1.012463927269 0.006923459936
1.332778000000 1.018101096153 0.023164901882 -0.000011291736 -0.000042740990 -0.000037778984 -0.000020517438 1.016273617744 0.018494084477
1.344776000000 1.017403244972 0.029240863398 0.000006952109 -0.000044807985 -0.000039872768 -0.000031070111 1.014938831329 0.022365281358
1.356774000000 1.018850803375 0.030899791047 0.000003685283 -0.000056644385 -0.000035396024 -0.000031254294 1.016667366028 0.021763131022
1.368772000000 1.019241571426 0.031585928053 -0.000001108126 -0.000057257232 -0.000044578603 -0.000045120130 1.016835689545 0.022028127685
1.380770000000 1.016589999199 0.030982993543 0.000002638355 -0.000052109051 -0.000041996333 -0.000053584376 1.014760017395 0.023487748578
1.392768000000 1.015068054199 0.037122260779 -0.000002539710 -0.000072660609 -0.000031974054 -0.000049854210 1.012698173523 0.022324588150
1.404766000000 1.018388032913 0.034987751395 0.000004485100 -0.000066964523 -0.000035628604 -0.000060800245 1.016017556190 0.018639527261
1.416764000000 1.017592430115 0.028693294153 0.000000500027 -0.000068641421 -0.000032991629 -0.000059666727 1.019743561745 0.010055414401
1.428762000000 1.015789747238 0.013287685812 0.000012727341 -0.000070126342 -0.000033738957 -0.000061420244 1.021973013878 -0.006424587220
1.440760000000 1.004547476768 0.041778963059 0.000020447525 -0.000074509117 -0.000025402447 -0.000064643638 1.016151189804 0.016029652208
1.452758000000 1.016524553299 0.041197139770 0.000005951633 -0.000072384079 -0.000021939470 -0.000067287503 1.019729614258 0.021879060194
1.464756000000 1.027760028839 0.034270029515 -0.000002905902 -0.000069153575 -0.000014300698 -0.000077853321 1.026161313057 0.019031874835
1.476754000000 1.026565670967 0.039652906358 -0.000010742512 -0.000064779328 -0.000003764615 -0.000077773664 1.018833398819 0.018643377349
1.488752000000 1.020743012428 0.049606397748 -0.000000927337 -0.000067396519 -0.000013509422 -0.000091583679 1.015194654465 0.027601137757
1.500750000000 1.017287492752 0.045725632459 0.000005898086 -0.000057311961 -0.000014992042 -0.000084925079 1.012912750244 0.019634924829
1.512748000000 1.021368741989 0.038784679025 -0.000001102928 -0.000064245309 -0.000014737207 -0.000092168011 1.016246199608 0.017527146265
1.524746000000 1.023675560951 0.041818652302 0.000002851332 -0.000064153690 -0.000009355256 -0.000087971639 1.014745712280 0.021541714668
1.536744000000 1.025154829025 0.037100087851 0.000003195035 -0.000057161335 -0.000007307616 -0.000085157917 1.019206762314 0.026464432478
1.548742000000 1.022122144699 0.043339796364 -0.000005296817 -0.000051584295 -0.000007804772 -0.000084866631 1.015917181969 0.021741259843
1.560740000000 1.018000245094 0.043291773647 0.000000803627 -0.000047788482 -0.000008101788 -0.000087247368 1.012247443199 0.022469980642
1.572738000000 1.020505666733 0.044625446200 0.000002852860 -0.000033671415 -0.000003749735 -0.000078323377 1.013670086861 0.024610660970
1.584736000000 1.020902037621 0.046598855406 0.000013669628 -0.000019823239 -0.000003792300 -0.000072391776 1.012709856033 0.025505058467
1.596734000000 1.020210742950 0.044334661216 0.000015445406 -0.000020528149 -0.000012472937 -0.000075032876 1.012514114380 0.024816393852
1.608732000000 1.022284865379 0.039859022945 0.000022128197 -0.000011285716 -0.000016095672 -0.000074414129 1.013431191444 0.024086372927
1.620730000000 1.017885088921 0.039783772081 0.000028008461 -0.000007048396 -0.000028924145 -0.000076196920 1.009580016136 0.022657398134
1.632728000000 1.018682241440 0.039448082447 0.000043662341 -0.000002371147 -0.000041806728 -0.000072909665 1.011864304543 0.022733893245
1.644726000000 1.019128084183 0.039631504565 0.000050597206 0.000011646502 -0.000059136240 -0.000066641544 1.011039972305 0.022523222491
1.656724000000 1.018225073814 0.040728289634 0.000069071015 -0.000011378237 -0.000067551315 -0.000060419083 1.011301040649 0.023793408647
1.668722000000 1.018599152565 0.042141739279 0.000082891886 -0.000017688100 -0.000081629347 -0.000052050920 1.011735081673 0.025488978252
1.680720000000 1.017088055611 0.045485433191 0.000084673782 -0.000033449935 -0.000094672054 -0.000044485190 1.008677721024 0.026724429801
1.692718000000 1.015918135643 0.050143133849 0.000087913068 -0.000038103364 -0.000100623860 -0.000035506841 1.009395122528 0.035542726517
1.704716000000 1.015640258789 0.056837487966 0.000086374173 -0.000051366991 -0.000110082496 -0.000026511632 1.006949782372 0.043894749135
1.716714000000 1.017113327980 0.045801360160 0.000071961658 -0.000054618969 -0.000123239006 -0.000023885512 1.009709596634 0.027760285884
1.728712000000 1.020994901657 0.044978797436 0.000064272434 -0.000061627514 -0.000141441400 -0.000021104237 1.010245442390 0.028791464865
