# GHZ S RI R 50
0.001000000000 0.985733747482 -0.003947250545 0.000022637114 0.000030571613 -0.000066772431 -0.000016584318 0.984215617180 -0.007908469066
0.012998000000 0.788237154484 0.075482659042 0.000001109058 0.000001214850 -0.000002865488 0.000001037320 0.743861258030 0.050295401365
0.024996000000 0.943158447742 -0.020828966051 0.000007706042 0.000011884634 -0.000001130461 0.000001715070 0.928804814816 -0.040118157864
0.036994000000 0.995219886303 0.106032051146 0.000002125883 0.000003342497 -0.000001063153 -0.000002387508 1.000173568726 0.087800912559
0.048992000000 1.030174612999 0.146960720420 0.000001419275 0.000006654368 -0.000004694864 -0.000000592402 1.028063654900 0.146284282207
0.060990000000 1.027118921280 -0.030818246305 0.000000540481 0.000005026310 -0.000000779199 0.000005840202 1.001837372780 -0.037867695093
0.072988000000 0.957968175411 -0.041709430516 -0.000000054547 0.000003201104 -0.000002850132 0.000002700875 0.932115852833 -0.037907049060
0.084986000000 0.995894789696 -0.048221554607 0.000002946562 0.000014900108 0.000000451479 -0.000003618871 0.973733663559 -0.034139614552
0.096984000000 1.019052743912 -0.079055212438 0.000002089667 0.000006467433 0.000001989468 -0.000002613309 1.004888534546 -0.053103853017
0.108982000000 1.027961730957 -0.102613836527 -0.000000640045 -0.000003089237 0.000002874888 -0.000003031237 1.013121724129 -0.060647577047
0.120980000000 1.021799802780 -0.077523328364 -0.000002762270 0.000004004164 0.000004723910 0.000001453016 1.015190243721 -0.059132721275
0.132978000000 1.062934279442 -0.080276094377 0.000003084424 0.000004598920 -0.000000859622 0.000000812941 1.034351587296 -0.034381262958
0.144976000000 1.058652162552 -0.040069039911 -0.000005716628 0.000007063073 -0.000000135609 -0.000002448483 1.033206820488 -0.014837279916
0.156974000000 1.045553803444 -0.050292361528 -0.000003496370 -0.000012368751 0.000001811568 -0.000008565813 1.028953433037 -0.034113705158
0.168972000000 1.040089249611 -0.043486688286 -0.000011303117 -0.000014381660 0.000003332910 -0.000025149586 1.024059772491 -0.028436278924
0.180970000000 1.036018967628 -0.011806879193 -0.000032292704 -0.000003409439 -0.000023086232 -0.000009454223 1.023496508598 -0.019823348150
0.192968000000 1.032005071640 -0.024271041155 -0.000028760764 0.000011001033 -0.000022758968 -0.000004478530 1.023400425911 -0.027954319492
0.204966000000 1.024348855019 -0.005287604872 -0.000030217538 0.000009514891 -0.000014414403 0.000002778728 1.020319819450 -0.007732719649
0.216964000000 1.018111109734 0.009227576666 -0.000025945596 0.000007734332 -0.000015717369 -0.000001355049 1.016695976257 0.002262709662
0.228962000000 1.017579317093 0.015799939632 -0.000020750404 0.000007110325 -0.000016871340 0.000004281344 1.016931056976 0.009830659255
0.240960000000 1.007514595985 0.009498210624 -0.000025458432 0.000001971700 -0.000028587319 -0.000003164276 1.010001540184 0.008707831614
0.252958000000 1.012167692184 0.017077991739 -0.000028958615 0.000007787035 -0.000024042034 -0.000004804793 1.012307047844 0.015012555756
0.264956000000 1.007852792740 0.014694650657 -0.000035876797 0.000000853673 -0.000028507029 -0.000000706119 1.008342146873 0.010675163940
0.276954000000 1.005872488022 0.016115102917 -0.000031125681 -0.000000228488 -0.000027078928 0.000003291948 1.006502032280 0.012524794787
0.288952000000 1.004617571831 0.012474421412 -0.000035906662 -0.000007677381 -0.000028690776 0.000007941785 1.005313754082 0.009776014835
0.300950000000 1.001519322395 0.009297115728 -0.000038661528 -0.000003767785 -0.000030318473 -0.000003248944 1.002124547958 0.004181008786
0.312948000000 1.001429438591 0.009644086473 -0.000040118179 0.000002074492 -0.000024183568 0.000002912559 1.002828240395 0.004440909717
0.324946000000 0.999906957150 0.013316079974 -0.000035093617 -0.000002814794 -0.000028461427 0.000000944392 1.001198768616 0.006705028936
0.336944000000 1.001187443733 0.011604026891 -0.000033824483 -0.000004880058 -0.000032016513 -0.000005017238 1.001301646233 0.000330305978
0.348942000000 1.002065539360 0.011747214943 -0.000035069570 -0.000004728548 -0.000027500093 -0.000004803077 1.000520586967 -0.000307301001
0.360940000000 0.999990105629 0.009885982610 -0.000027230592 -0.000014537890 -0.000025249828 -0.000005736749 0.996840000153 -0.000941609556
0.372938000000 1.002362132072 0.010355546139 -0.000026338068 -0.000010575902 -0.000028630740 -0.000010938445 1.000629067421 -0.003052788088
0.384936000000 1.000328779221 0.011385034770 -0.000043124495 -0.000018063782 -0.000030686431 -0.000013205246 1.000317692757 -0.001176065067
0.396934000000 0.999659180641 0.010438439436 -0.000028034989 -0.000020030677 -0.000025404950 -0.000014450431 0.999595165253 0.003293206682
0.408932000000 1.001541137695 0.011776786298 -0.000025727115 -0.000030157493 -0.000022854827 -0.000011460776 1.002885222435 -0.000254753832
0.420930000000 1.001791954041 0.019943617284 -0.000031824766 -0.000021767979 -0.000017051536 -0.000016821181 1.003377795219 0.007321513258
0.432928000000 1.003269433975 0.020629253238 -0.000024248211 -0.000032336291 -0.000017697370 -0.000018080944 1.003821134567 0.007633698173
0.444926000000 1.001419425011 0.019645832479 -0.000021006343 -0.000034899520 -0.000017517114 -0.000020786481 1.000204801559 0.002339376369
0.456924000000 1.002378821373 0.018903730437 -0.000031262414 -0.000028793424 -0.000012489982 -0.000029327799 1.002220749855 0.000707019644
0.468922000000 1.005080938339 0.019488688558 -0.000020754153 -0.000040287421 -0.000009370999 -0.000020294068 1.003774046898 0.000844055030
0.480920000000 1.003147482872 0.020582463592 -0.000021646025 -0.000048382015 -0.000009512803 -0.000032056341 1.002068161964 -0.001891732565
0.492918000000 1.003984332085 0.016943328083 -0.000023330826 -0.000058814185 -0.000002429737 -0.000024049363 1.002596616745 -0.005639668554
0.504916000000 1.004212021828 0.018183110282 -0.000012401785 -0.000058302343 -0.000004962978 -0.000033670105 1.001682400703 -0.004375786521
0.516914000000 1.009464383125 0.016523655504 -0.000017421175 -0.000059505590 0.000000311340 -0.000023397173 1.005964756012 -0.002171618165
0.528912000000 1.009335875511 0.017550144345 -0.000008168142 -0.000050475130 0.000007315833 -0.000019786421 1.006406903267 -0.000603510183
0.540910000000 1.007538318634 0.018125399947 -0.000001123972 -0.000043831635 -0.000002518745 -0.000029832121 1.004392743111 -0.001031056629
0.552908000000 1.005841016769 0.022773258388 0.000003461693 -0.000048967318 0.000008749483 -0.000029824270 1.005848288536 0.000951000839
0.564906000000 1.005647301674 0.024483982474 0.000019329555 -0.000050239996 0.000014014974 -0.000030955242 1.006937503815 0.002571988385
0.576904000000 1.005106449127 0.024142140523 0.000020818521 -0.000052688723 0.000012497391 -0.000021610700 1.006655335426 0.001449413248
0.588902000000 1.009698629379 0.025550542399 0.000015773308 -0.000051067884 0.000004348892 -0.000032024931 1.008540630341 0.003772267606
0.600900000000 1.009693026543 0.025479545817 0.000011266627 -0.000047433728 0.000002013554 -0.000020247862 1.006176710129 0.006818361580
0.612898000000 1.009027242661 0.024000439793 0.000040926028 -0.000053232525 0.000025547051 -0.000018161332 1.006373286247 0.011863796040
0.624896000000 1.010394334793 0.025493150577 0.000033768731 -0.000049554688 0.000017263499 -0.000017381859 1.006208419800 0.016632294282
0.636894000000 1.010351657867 0.020405059680 0.000046106808 -0.000045930145 0.000016542406 -0.000020156935 1.006224036217 0.012037642300
0.648892000000 1.009971499443 0.015442144126 0.000039671151 -0.000049217371 0.000021636311 -0.000012871273 1.007164597511 0.003562680213
0.660890000000 1.011928558350 0.016471182927 0.000040777890 -0.000036058260 0.000021687685 0.000004696228 1.006737947464 0.000881718937
0.672888000000 1.013293385506 0.010668876581 0.000039246534 -0.000046630939 0.000012428083 -0.000016510054 1.007913589478 -0.010951394215
0.684886000000 1.014928460121 0.007647375111 0.000051590665 -0.000037866103 0.000025129275 -0.000016841776 1.007894158363 -0.020285351202
0.696884000000 1.015217423439 0.015475171618 0.000059640839 -0.000029148927 0.000012676138 -0.000012617667 1.008402943611 -0.011469590478
0.708882000000 1.015392184258 0.017036046833 0.000061328908 -0.000041598665 0.000024753077 0.000003498852 1.008812308311 -0.016839981079
0.720880000000 1.014066338539 0.016121925786 0.000061750805 -0.000031705589 0.000018787949 -0.000000640390 1.006487250328 -0.026503834873
0.732878000000 1.014889955521 0.020968014374 0.000060412229 -0.000022334556 0.000020975287 0.000002729337 1.009660601616 -0.021091012284
0.744876000000 1.014193296432 0.022338578478 0.000051241954 -0.000017799432 0.000033716107 -0.000011911721 1.008815884590 -0.017675515264
0.756874000000 1.016532063484 0.021158222109 0.000058275346 -0.000015621512 0.000014411839 -0.000009908039 1.009343981743 -0.015425073914
0.768872000000 1.015865921974 0.020039044321 0.000058254238 -0.000001211916 0.000013616835 -0.000011695130 1.009926438332 -0.013481746428
0.780870000000 1.015510678291 0.019033402205 0.000067732239 -0.000013231244 0.000010960320 0.000001110919 1.008524537086 -0.009472239763
0.792868000000 1.018155813217 0.017992757261 0.000083949351 0.000004099685 0.000018956707 0.000003605384 1.011075615883 -0.007964804769
0.804866000000 1.017712235451 0.016093755141 0.000070791422 -0.000008732057 0.000011797185 0.000012154116 1.010191798210 -0.007534188684
0.816864000000 1.017994880676 0.017265178263 0.000053731834 -0.000000235720 0.000010581563 0.000014783644 1.010719656944 -0.005752219353
0.828862000000 1.018983602524 0.007696296554 0.000037119749 0.000021858172 0.000001572194 0.000003619196 1.010519504547 -0.012930351309
0.840860000000 1.018211960793 0.013794978149 0.000043909888 0.000028928027 0.000009276153 0.000005474644 1.008210659027 -0.007847874425
0.852858000000 1.019500374794 0.013689721934 0.000037381273 0.000030115629 0.000007520355 -0.000001289240 1.008765816689 -0.004426267464
0.864856000000 1.019840359688 0.013086775318 0.000037682927 0.000031750849 0.000001638172 -0.000006401674 1.010430097580 -0.007300331257
0.876854000000 1.019502043724 0.012507017702 0.000044482560 0.000032746731 -0.000001128890 0.000005667477 1.011145234108 -0.008197509684
0.888852000000 1.019887685776 0.011602607556 0.000052868731 0.000031385865 0.000000720471 0.000002845777 1.011194705963 -0.010324972682
0.900850000000 1.018236637115 0.010637168773 0.000045703397 0.000038164151 -0.000009336570 0.000002398802 1.008428812027 -0.014681167901
0.912848000000 1.019561052322 0.010729731061 0.000044918183 0.000042295891 0.000001509855 -0.000002138352 1.010092973709 -0.012867127545
0.924846000000 1.019206762314 0.006746572442 0.000030774543 0.000037104881 -0.000000137216 0.000002224425 1.009335398674 -0.015592257492
0.936844000000 1.019906044006 0.004135812167 0.000019440757 0.000032490963 -0.000002713197 -0.000003965244 1.009453773499 -0.015225558542
0.948842000000 1.022683739662 0.001140067703 0.000007784127 0.000025981088 -0.000003015081 -0.000004144895 1.014632940292 -0.020481551066
0.960840000000 1.020553946495 -0.004841523245 -0.000002159828 0.000022118080 -0.000006837129 -0.000015820833 1.009423732758 -0.024870930240
0.972838000000 1.021460771561 -0.001944219694 -0.000005853346 0.000011361940 -0.000002970942 -0.000006940503 1.009927034378 -0.021455857903
0.984836000000 1.021355152130 -0.005502713844 -0.000019064057 0.000023818637 0.000008636103 -0.000011541797 1.008629322052 -0.025987455621
0.996834000000 1.019942522049 -0.008066880517 -0.000019113857 0.000028612127 0.000002262808 -0.000009840121 1.009044885635 -0.025761546567
1.008832000000 1.019555330276 -0.009922280908 -0.000021954331 0.000034882112 0.000002865488 -0.000014175441 1.011220216751 -0.024345124140
1.020830000000 1.016374230385 -0.014097434469 -0.000014843919 0.000046879450 -0.000005515219 -0.000018659794 1.007487416267 -0.023322347552
1.032828000000 1.022026181221 -0.007785461843 -0.000017756189 0.000044703604 -0.000011294118 -0.000013206055 1.010833144188 -0.011299161240
1.044826000000 1.021958231926 -0.019315890968 -0.000024454939 0.000043869848 -0.000020724388 -0.000017434444 1.014243483543 -0.018924606964
1.056824000000 1.026239991188 -0.015721213073 -0.000028260127 0.000040344268 -0.000008376584 -0.000014922301 1.014252662659 -0.006109587848
1.068822000000 1.022244095802 -0.007528272457 -0.000044954835 0.000032356511 0.000002332367 -0.000020517880 1.008182287216 0.001956942491
1.080820000000 1.022801756859 -0.009033560753 -0.000042404292 0.000018095390 0.000006253657 -0.000022492397 1.010583519936 0.005890594330
1.092818000000 1.019878625870 -0.009068468586 -0.000046316509 0.000009469783 0.000016818518 -0.000013443002 1.008787512779 0.007142553572
1.104816000000 1.021010994911 -0.015797073022 -0.000044223154 -0.000015498485 0.000024399988 -0.000007270284 1.012465000153 0.001826097025
1.116814000000 1.022491812706 -0.017477935180 -0.000038236809 -0.000036380417 0.000027009010 -0.000018105780 1.017025947571 -0.009523506276
1.128812000000 1.020369887352 -0.024135347456 -0.000023868108 -0.000037006812 0.000031726948 0.000002744822 1.012146234512 -0.030388632789
1.140810000000 1.018292903900 -0.019294766709 -0.000029574427 -0.000063068037 0.000043804033 -0.000004628541 1.006846547127 -0.030246047303
1.152808000000 1.020961999893 -0.024700531736 -0.000043695742 -0.000070360300 0.000042369924 -0.000006341154 1.009718894958 -0.035618472844
1.164806000000 1.022085070610 -0.025113428012 -0.000033332228 -0.000075090502 0.000031854572 -0.000005479384 1.010676264763 -0.034359268844
1.176804000000 1.018933415413 -0.027035646141 -0.000030263986 -0.000071536000 0.000037538859 -0.000006798663 1.010370254517 -0.034780148417
1.188802000000 1.013355135918 -0.023056089878 -0.000024271974 -0.000077103025 0.000039428662 -0.000018166169 1.007757067680 -0.034798860550
1.200800000000 1.013288259506 -0.022729357705 -0.000011325998 -0.000075642616 0.000035150613 -0.000028824863 1.013391375542 -0.037638183683
1.212798000000 1.017640590668 -0.024965118617 -0.000007096426 -0.000085697611 0.000023217612 -0.000023985180 1.015456080437 -0.039609566331
1.224796000000 1.013121128082 -0.029205078259 0.000003041097 -0.000092315553 0.000013169724 -0.000016819207 1.010995626450 -0.050466731191
1.236794000000 1.012899518013 -0.028560889885 0.000002917604 -0.000098147073 -0.000001870396 -0.000032458247 1.007966041565 -0.058798812330
1.248792000000 1.012774109840 -0.024425385520 0.000014983968 -0.000112075802 0.000004483987 -0.000055038156 1.007111668587 -0.068520784378
1.260790000000 1.009505748749 -0.020579697564 0.000010013786 -0.000121956429 -0.000018439447 -0.000049323418 1.002601981163 -0.075281478465
1.272788000000 1.008683443069 -0.027666540816 0.000016916267 -0.000123899270 -0.000010934047 -0.000057952489 1.003926396370 -0.077447175980
1.284786000000 1.006276965141 -0.010805135593 0.000016971593 -0.000129453692 -0.000007108198 -0.000057255093 1.004089832306 -0.063502803445
1.296784000000 1.008160829544 -0.034946832806 0.000003820254 -0.000132219662 0.000021548269 -0.000055299679 1.008180856705 -0.065833032131
1.308782000000 1.006125092506 -0.035688512027 0.000009388461 -0.000135905153 0.000029280960 -0.000040920771 1.007458806038 -0.070384331048
1.320780000000 1.001795291901 -0.040800910443 0.000016360118 -0.000151095475 0.000037950278 -0.000032221611 1.005255222321 -0.068294592202
1.332778000000 1.000913023949 -0.044557966292 0.000025970110 -0.000153558591 0.000043038155 -0.000022911410 1.005994200706 -0.069440402091
1.344776000000 1.000339746475 -0.044668611139 0.000034037756 -0.000165270758 0.000059825834 -0.000009715270 1.006509184837 -0.070817142725
1.356774000000 0.998330652714 -0.045786172152 0.000051466312 -0.000164884623 0.000060299019 -0.000019715453 1.006607294083 -0.073052152991
1.368772000000 0.997419178486 -0.046090614051 0.000075265030 -0.000173090695 0.000065045693 -0.000034414468 1.006860971451 -0.070754602551
1.380770000000 0.992569506168 -0.046667326242 0.000083636362 -0.000193948566 0.000069929039 -0.000049523966 1.004320502281 -0.067275710404
1.392768000000 0.997769355774 -0.043807953596 0.000081580467 -0.000186013247 0.000061344610 -0.000058442787 1.010278224945 -0.066816851497
1.404766000000 0.991747975349 -0.041286259890 0.000087635868 -0.000181309049 0.000055013992 -0.000053014192 1.006836771965 -0.065728515387
1.416764000000 0.987923085690 -0.044176839292 0.000091429829 -0.000171865249 0.000056960027 -0.000046783225 1.005580544472 -0.072409145534
1.428762000000 0.983009338379 -0.055377639830 0.000093983806 -0.000175225927 0.000049212558 -0.000061787148 1.003878951073 -0.085827253759
1.440760000000 0.989233970642 -0.028909061104 0.000092149116 -0.000164518351 0.000053535936 -0.000075246928 1.014064311981 -0.052398107946
1.452758000000 0.988192796707 -0.035725273192 0.000085275526 -0.000166977698 0.000057369009 -0.000086780070 1.011004686356 -0.056532733142
1.464756000000 0.993891596794 -0.028091166168 0.000095621479 -0.000159258547 0.000046525300 -0.000091354246 1.006779313087 -0.048002410680
1.476754000000 0.992114603519 -0.032222829759 0.000081951919 -0.000152475739 0.000044321103 -0.000112675778 1.007946491241 -0.052938643843
1.488752000000 0.993566393852 -0.040009066463 0.000083470935 -0.000136091854 0.000033946329 -0.000125047285 1.005812644958 -0.061795018613
1.500750000000 0.984530925751 -0.032911483198 0.000082449871 -0.000124117141 0.000025139823 -0.000117277814 0.998887360096 -0.061629094183
1.512748000000 0.989963412285 -0.031704671681 0.000084687184 -0.000108659668 0.000004995301 -0.000123402497 1.000273585320 -0.059382714331
1.524746000000 0.985973417759 -0.037391260266 0.000080277758 -0.000084369494 0.000001995279 -0.000125607665 0.998903512955 -0.065692037344
1.536744000000 0.984602928162 -0.036032836884 0.000081511360 -0.000044325014 -0.000010575974 -0.000112710826 0.992298603058 -0.070484161377
1.548742000000 0.983657181263 -0.044235471636 0.000082203434 -0.000018618764 -0.000007181683 -0.000110317254 0.995002329350 -0.068615704775
1.560740000000 0.979118049145 -0.044187758118 0.000073356277 0.000011981169 -0.000020182382 -0.000098595105 0.989934980869 -0.070012770593
1.572738000000 0.980001926422 -0.043887089938 0.000072222800 0.000038304082 -0.000022096046 -0.000087318578 0.989824473858 -0.076915912330
1.584736000000 0.978062748909 -0.043123912066 0.000064045045 0.000071659881 -0.000033831235 -0.000086208645 0.985759675503 -0.085524924099
1.596734000000 0.977391302586 -0.043873898685 0.000051651143 0.000109086926 -0.000040398216 -0.000074336378 0.983397781849 -0.094952687621
1.608732000000 0.978303313255 -0.045259475708 0.000047290458 0.000140637843 -0.000055619381 -0.000049020502 0.981582522392 -0.104482710361
1.620730000000 0.974486529827 -0.045064229518 0.000032520442 0.000171400330 -0.000048680264 -0.000028947095 0.975148022175 -0.115754067898
1.632728000000 0.977766513824 -0.045986760408 0.000036566253 0.000209078091 -0.000053938598 -0.000013828754 0.974899828434 -0.123118735850
1.644726000000 0.978057444096 -0.046924017370 0.000021384953 0.000250556244 -0.000054002816 0.000011437931 0.971263825893 -0.131977319717
1.656724000000 0.976866841316 -0.048505391926 0.000029001551 0.000303281849 -0.000042386575 0.000037076832 0.968108654022 -0.137422680855
1.668722000000 0.976040124893 -0.049168728292 0.000034798741 0.000344895496 -0.000030659641 0.000063365791 0.966510593891 -0.137680649757
1.680720000000 0.975030779839 -0.046429023147 0.000031957676 0.000388679822 -0.000009556314 0.000073371106 0.961327850819 -0.136872276664
1.692718000000 0.972202062607 -0.044563613832 0.000048085603 0.000445253187 -0.000008563302 0.000080003549 0.960653543472 -0.128942087293
1.704716000000 0.972021281719 -0.037736386061 0.000037960715 0.000490292732 -0.000000501220 0.000088656343 0.955451071262 -0.122273057699
1.716714000000 0.975903928280 -0.035890739411 0.000055157368 0.000532641832 0.000003946412 0.000093064562 0.953419029713 -0.127726286650
